# Reading E:/Quartus/modelsim_ase/tcl/vsim/pref.tcl
# ERROR: No extended dataflow license exists
# do regfile_run_msim_gate_verilog.do
# if {[file exists gate_work]} {
# 	vdel -lib gate_work -all
# }
# vlib gate_work
# vmap work gate_work
# Model Technology ModelSim ALTERA vmap 10.4d Lib Mapping Utility 2015.12 Dec 30 2015
# vmap work gate_work 
# Copying E:/Quartus/modelsim_ase/win32aloem/../modelsim.ini to modelsim.ini
# Modifying modelsim.ini
# 
# vlog -vlog01compat -work work +incdir+. {regfile_7_1200mv_85c_slow.vo}
# Model Technology ModelSim ALTERA vlog 10.4d Compiler 2015.12 Dec 30 2015
# Start time: 22:28:41 on Oct 06,2021
# vlog -reportprogress 300 -vlog01compat -work work "+incdir+." regfile_7_1200mv_85c_slow.vo 
# -- Compiling module regfile
# 
# Top level modules:
# 	regfile
# End time: 22:28:42 on Oct 06,2021, Elapsed time: 0:00:01
# Errors: 0, Warnings: 0
# 
# vlog -vlog01compat -work work +incdir+C:/Users/22922/Desktop/FallSemester/ECE550/ECE550_Repo/Project3-RegFile {C:/Users/22922/Desktop/FallSemester/ECE550/ECE550_Repo/Project3-RegFile/regfile_tb.v}
# Model Technology ModelSim ALTERA vlog 10.4d Compiler 2015.12 Dec 30 2015
# Start time: 22:28:42 on Oct 06,2021
# vlog -reportprogress 300 -vlog01compat -work work "+incdir+C:/Users/22922/Desktop/FallSemester/ECE550/ECE550_Repo/Project3-RegFile" C:/Users/22922/Desktop/FallSemester/ECE550/ECE550_Repo/Project3-RegFile/regfile_tb.v 
# -- Compiling module regfile_tb
# 
# Top level modules:
# 	regfile_tb
# End time: 22:28:42 on Oct 06,2021, Elapsed time: 0:00:00
# Errors: 0, Warnings: 0
# 
# vsim -t 1ps +transport_int_delays +transport_path_delays -L altera_ver -L cycloneive_ver -L gate_work -L work -voptargs="+acc"  regfile_tb
# vsim -t 1ps "+transport_int_delays" "+transport_path_delays" -L altera_ver -L cycloneive_ver -L gate_work -L work -voptargs=""+acc"" regfile_tb 
# Start time: 22:28:42 on Oct 06,2021
# Loading work.regfile_tb
# Loading work.regfile
# Loading cycloneive_ver.cycloneive_io_obuf
# Loading cycloneive_ver.cycloneive_io_ibuf
# Loading cycloneive_ver.cycloneive_lcell_comb
# Loading cycloneive_ver.cycloneive_clkctrl
# Loading cycloneive_ver.cycloneive_mux41
# Loading cycloneive_ver.cycloneive_ena_reg
# Loading altera_ver.dffeas
# SDF 10.4d Compiler 2015.12 Dec 30 2015
# 
# Loading instances from regfile_7_1200mv_85c_v_slow.sdo
# Loading altera_ver.PRIM_GDFF_LOW
# Loading timing data from regfile_7_1200mv_85c_v_slow.sdo
# ** Note: (vsim-3587) SDF Backannotation Successfully Completed.
#    Time: 0 ps  Iteration: 0  Instance: /regfile_tb File: C:/Users/22922/Desktop/FallSemester/ECE550/ECE550_Repo/Project3-RegFile/regfile_tb.v
# 
# add wave *
# view structure
# .main_pane.structure.interior.cs.body.struct
# view signals
# .main_pane.objects.interior.cs.body.tree
# run -all
#                    0 << Starting the Simulation >>
#                   80 << Writing register  0 with 00364908 >>
# **Error on port A: read 00000000 but expected 00364908.
# **Error on port B: read 00000000 but expected 00364908.
#                  160 << Writing register  1 with 00364908 >>
#                  240 << Writing register  2 with 00364908 >>
#                  320 << Writing register  3 with 00364908 >>
#                  400 << Writing register  4 with 00364908 >>
#                  480 << Writing register  5 with 00364908 >>
#                  560 << Writing register  6 with 00364908 >>
#                  640 << Writing register  7 with 00364908 >>
#                  720 << Writing register  8 with 00364908 >>
#                  800 << Writing register  9 with 00364908 >>
#                  880 << Writing register 10 with 00364908 >>
#                  960 << Writing register 11 with 00364908 >>
#                 1040 << Writing register 12 with 00364908 >>
#                 1120 << Writing register 13 with 00364908 >>
#                 1200 << Writing register 14 with 00364908 >>
#                 1280 << Writing register 15 with 00364908 >>
#                 1360 << Writing register 16 with 00364908 >>
#                 1440 << Writing register 17 with 00364908 >>
#                 1520 << Writing register 18 with 00364908 >>
#                 1600 << Writing register 19 with 00364908 >>
#                 1680 << Writing register 20 with 00364908 >>
#                 1760 << Writing register 21 with 00364908 >>
#                 1840 << Writing register 22 with 00364908 >>
#                 1920 << Writing register 23 with 00364908 >>
#                 2000 << Writing register 24 with 00364908 >>
#                 2080 << Writing register 25 with 00364908 >>
#                 2160 << Writing register 26 with 00364908 >>
#                 2240 << Writing register 27 with 00364908 >>
#                 2320 << Writing register 28 with 00364908 >>
#                 2400 << Writing register 29 with 00364908 >>
#                 2480 << Writing register 30 with 00364908 >>
#                 2560 << Writing register 31 with 00364908 >>
# The simulation failed with           2 errors
# ** Note: $stop    : C:/Users/22922/Desktop/FallSemester/ECE550/ECE550_Repo/Project3-RegFile/regfile_tb.v(46)
#    Time: 2620 ns  Iteration: 1  Instance: /regfile_tb
# Break in Module regfile_tb at C:/Users/22922/Desktop/FallSemester/ECE550/ECE550_Repo/Project3-RegFile/regfile_tb.v line 46
# End time: 22:29:31 on Oct 06,2021, Elapsed time: 0:00:49
# Errors: 0, Warnings: 0
