# Reading C:/altera_lite/16.0/modelsim_ase/tcl/vsim/pref.tcl
# do regfile_run_msim_rtl_verilog.do
# if {[file exists rtl_work]} {
# 	vdel -lib rtl_work -all
# }
# vlib rtl_work
# vmap work rtl_work
# Model Technology ModelSim ALTERA vmap 10.4d Lib Mapping Utility 2015.12 Dec 30 2015
# vmap work rtl_work 
# Copying C:/altera_lite/16.0/modelsim_ase/win32aloem/../modelsim.ini to modelsim.ini
# Modifying modelsim.ini
# 
# vlog -vlog01compat -work work +incdir+C:/Users/bz82/Documents/ECE\ 550/ECE550_Repo/Project3-RegFile {C:/Users/bz82/Documents/ECE 550/ECE550_Repo/Project3-RegFile/decoder_5to32.v}
# Model Technology ModelSim ALTERA vlog 10.4d Compiler 2015.12 Dec 30 2015
# Start time: 19:27:29 on Oct 06,2021
# vlog -reportprogress 300 -vlog01compat -work work "+incdir+C:/Users/bz82/Documents/ECE 550/ECE550_Repo/Project3-RegFile" C:/Users/bz82/Documents/ECE 550/ECE550_Repo/Project3-RegFile/decoder_5to32.v 
# -- Compiling module decoder_5to32
# 
# Top level modules:
# 	decoder_5to32
# End time: 19:27:29 on Oct 06,2021, Elapsed time: 0:00:00
# Errors: 0, Warnings: 0
# vlog -vlog01compat -work work +incdir+C:/Users/bz82/Documents/ECE\ 550/ECE550_Repo/Project3-RegFile {C:/Users/bz82/Documents/ECE 550/ECE550_Repo/Project3-RegFile/regfile.v}
# Model Technology ModelSim ALTERA vlog 10.4d Compiler 2015.12 Dec 30 2015
# Start time: 19:27:29 on Oct 06,2021
# vlog -reportprogress 300 -vlog01compat -work work "+incdir+C:/Users/bz82/Documents/ECE 550/ECE550_Repo/Project3-RegFile" C:/Users/bz82/Documents/ECE 550/ECE550_Repo/Project3-RegFile/regfile.v 
# -- Compiling module regfile
# 
# Top level modules:
# 	regfile
# End time: 19:27:29 on Oct 06,2021, Elapsed time: 0:00:00
# Errors: 0, Warnings: 0
# vlog -vlog01compat -work work +incdir+C:/Users/bz82/Documents/ECE\ 550/ECE550_Repo/Project3-RegFile {C:/Users/bz82/Documents/ECE 550/ECE550_Repo/Project3-RegFile/dffe_ref.v}
# Model Technology ModelSim ALTERA vlog 10.4d Compiler 2015.12 Dec 30 2015
# Start time: 19:27:30 on Oct 06,2021
# vlog -reportprogress 300 -vlog01compat -work work "+incdir+C:/Users/bz82/Documents/ECE 550/ECE550_Repo/Project3-RegFile" C:/Users/bz82/Documents/ECE 550/ECE550_Repo/Project3-RegFile/dffe_ref.v 
# -- Compiling module dffe_ref
# 
# Top level modules:
# 	dffe_ref
# End time: 19:27:30 on Oct 06,2021, Elapsed time: 0:00:00
# Errors: 0, Warnings: 0
# vlog -vlog01compat -work work +incdir+C:/Users/bz82/Documents/ECE\ 550/ECE550_Repo/Project3-RegFile {C:/Users/bz82/Documents/ECE 550/ECE550_Repo/Project3-RegFile/register_32b.v}
# Model Technology ModelSim ALTERA vlog 10.4d Compiler 2015.12 Dec 30 2015
# Start time: 19:27:30 on Oct 06,2021
# vlog -reportprogress 300 -vlog01compat -work work "+incdir+C:/Users/bz82/Documents/ECE 550/ECE550_Repo/Project3-RegFile" C:/Users/bz82/Documents/ECE 550/ECE550_Repo/Project3-RegFile/register_32b.v 
# -- Compiling module register_32b
# 
# Top level modules:
# 	register_32b
# End time: 19:27:30 on Oct 06,2021, Elapsed time: 0:00:00
# Errors: 0, Warnings: 0
# 
# vlog -vlog01compat -work work +incdir+C:/Users/bz82/Documents/ECE\ 550/ECE550_Repo/Project3-RegFile {C:/Users/bz82/Documents/ECE 550/ECE550_Repo/Project3-RegFile/regfile_tb.v}
# Model Technology ModelSim ALTERA vlog 10.4d Compiler 2015.12 Dec 30 2015
# Start time: 19:27:30 on Oct 06,2021
# vlog -reportprogress 300 -vlog01compat -work work "+incdir+C:/Users/bz82/Documents/ECE 550/ECE550_Repo/Project3-RegFile" C:/Users/bz82/Documents/ECE 550/ECE550_Repo/Project3-RegFile/regfile_tb.v 
# -- Compiling module regfile_tb
# 
# Top level modules:
# 	regfile_tb
# End time: 19:27:30 on Oct 06,2021, Elapsed time: 0:00:00
# Errors: 0, Warnings: 0
# 
# vsim -t 1ps -L altera_ver -L lpm_ver -L sgate_ver -L altera_mf_ver -L altera_lnsim_ver -L cycloneive_ver -L rtl_work -L work -voptargs="+acc"  regfile_tb
# vsim -t 1ps -L altera_ver -L lpm_ver -L sgate_ver -L altera_mf_ver -L altera_lnsim_ver -L cycloneive_ver -L rtl_work -L work -voptargs=""+acc"" regfile_tb 
# Start time: 19:27:30 on Oct 06,2021
# Loading work.regfile_tb
# Loading work.regfile
# Loading work.decoder_5to32
# Loading work.register_32b
# Loading work.dffe_ref
# 
# add wave *
# view structure
# .main_pane.structure.interior.cs.body.struct
# view signals
# .main_pane.objects.interior.cs.body.tree
# run -all
#                    0 << Starting the Simulation >>
#                   80 << Writing register  0 with 00364908 >>
# **Error on port A: read 00XXXX0X but expected 00364908.
# **Error on port B: read 00XXXX0X but expected 00364908.
#                  160 << Writing register  1 with 00364908 >>
# **Error on port A: read 00XXXX0X but expected 00364908.
# **Error on port B: read 00XXXX0X but expected 00364908.
#                  240 << Writing register  2 with 00364908 >>
# **Error on port A: read 00XXXX0X but expected 00364908.
# **Error on port B: read 00XXXX0X but expected 00364908.
#                  320 << Writing register  3 with 00364908 >>
# **Error on port A: read 00XXXX0X but expected 00364908.
# **Error on port B: read 00XXXX0X but expected 00364908.
#                  400 << Writing register  4 with 00364908 >>
# **Error on port A: read 00XXXX0X but expected 00364908.
# **Error on port B: read 00XXXX0X but expected 00364908.
#                  480 << Writing register  5 with 00364908 >>
# **Error on port A: read 00XXXX0X but expected 00364908.
# **Error on port B: read 00XXXX0X but expected 00364908.
#                  560 << Writing register  6 with 00364908 >>
# **Error on port A: read 00XXXX0X but expected 00364908.
# **Error on port B: read 00XXXX0X but expected 00364908.
#                  640 << Writing register  7 with 00364908 >>
# **Error on port A: read 00XXXX0X but expected 00364908.
# **Error on port B: read 00XXXX0X but expected 00364908.
#                  720 << Writing register  8 with 00364908 >>
# **Error on port A: read 00XXXX0X but expected 00364908.
# **Error on port B: read 00XXXX0X but expected 00364908.
#                  800 << Writing register  9 with 00364908 >>
# **Error on port A: read 00XXXX0X but expected 00364908.
# **Error on port B: read 00XXXX0X but expected 00364908.
#                  880 << Writing register 10 with 00364908 >>
# **Error on port A: read 00XXXX0X but expected 00364908.
# **Error on port B: read 00XXXX0X but expected 00364908.
#                  960 << Writing register 11 with 00364908 >>
# **Error on port A: read 00XXXX0X but expected 00364908.
# **Error on port B: read 00XXXX0X but expected 00364908.
#                 1040 << Writing register 12 with 00364908 >>
# **Error on port A: read 00XXXX0X but expected 00364908.
# **Error on port B: read 00XXXX0X but expected 00364908.
#                 1120 << Writing register 13 with 00364908 >>
# **Error on port A: read 00XXXX0X but expected 00364908.
# **Error on port B: read 00XXXX0X but expected 00364908.
#                 1200 << Writing register 14 with 00364908 >>
# **Error on port A: read 00XXXX0X but expected 00364908.
# **Error on port B: read 00XXXX0X but expected 00364908.
#                 1280 << Writing register 15 with 00364908 >>
# **Error on port A: read 00XXXX0X but expected 00364908.
# **Error on port B: read 00XXXX0X but expected 00364908.
#                 1360 << Writing register 16 with 00364908 >>
# **Error on port A: read 00XXXX0X but expected 00364908.
# **Error on port B: read 00XXXX0X but expected 00364908.
#                 1440 << Writing register 17 with 00364908 >>
# **Error on port A: read 00XXXX0X but expected 00364908.
# **Error on port B: read 00XXXX0X but expected 00364908.
#                 1520 << Writing register 18 with 00364908 >>
# **Error on port A: read 00XXXX0X but expected 00364908.
# **Error on port B: read 00XXXX0X but expected 00364908.
#                 1600 << Writing register 19 with 00364908 >>
# **Error on port A: read 00XXXX0X but expected 00364908.
# **Error on port B: read 00XXXX0X but expected 00364908.
#                 1680 << Writing register 20 with 00364908 >>
# **Error on port A: read 00XXXX0X but expected 00364908.
# **Error on port B: read 00XXXX0X but expected 00364908.
#                 1760 << Writing register 21 with 00364908 >>
# **Error on port A: read 00XXXX0X but expected 00364908.
# **Error on port B: read 00XXXX0X but expected 00364908.
#                 1840 << Writing register 22 with 00364908 >>
# **Error on port A: read 00XXXX0X but expected 00364908.
# **Error on port B: read 00XXXX0X but expected 00364908.
#                 1920 << Writing register 23 with 00364908 >>
# **Error on port A: read 00XXXX0X but expected 00364908.
# **Error on port B: read 00XXXX0X but expected 00364908.
#                 2000 << Writing register 24 with 00364908 >>
# **Error on port A: read 00XXXX0X but expected 00364908.
# **Error on port B: read 00XXXX0X but expected 00364908.
#                 2080 << Writing register 25 with 00364908 >>
# **Error on port A: read 00XXXX0X but expected 00364908.
# **Error on port B: read 00XXXX0X but expected 00364908.
#                 2160 << Writing register 26 with 00364908 >>
# **Error on port A: read 00XXXX0X but expected 00364908.
# **Error on port B: read 00XXXX0X but expected 00364908.
#                 2240 << Writing register 27 with 00364908 >>
# **Error on port A: read 00XXXX0X but expected 00364908.
# **Error on port B: read 00XXXX0X but expected 00364908.
#                 2320 << Writing register 28 with 00364908 >>
# **Error on port A: read 00XXXX0X but expected 00364908.
# **Error on port B: read 00XXXX0X but expected 00364908.
#                 2400 << Writing register 29 with 00364908 >>
# **Error on port A: read 00XXXX0X but expected 00364908.
# **Error on port B: read 00XXXX0X but expected 00364908.
#                 2480 << Writing register 30 with 00364908 >>
# **Error on port A: read 00XXXX0X but expected 00364908.
# **Error on port B: read 00XXXX0X but expected 00364908.
#                 2560 << Writing register 31 with 00364908 >>
# **Error on port A: read 00XXXX0X but expected 00364908.
# **Error on port B: read 00XXXX0X but expected 00364908.
# The simulation failed with          64 errors
# ** Note: $stop    : C:/Users/bz82/Documents/ECE 550/ECE550_Repo/Project3-RegFile/regfile_tb.v(47)
#    Time: 2620 ns  Iteration: 1  Instance: /regfile_tb
# Break in Module regfile_tb at C:/Users/bz82/Documents/ECE 550/ECE550_Repo/Project3-RegFile/regfile_tb.v line 47
# End time: 19:28:17 on Oct 06,2021, Elapsed time: 0:00:47
# Errors: 0, Warnings: 0
